                  * c:\users\jagad\desktop\esim\sasi\sasi.cir
                  Transient Analysis  Sat Oct 08 21:42:39  2022
--------------------------------------------------------------------------------
Index   time            v1#branch       v2#branch       v3#branch       
--------------------------------------------------------------------------------
0	0.000000e+00	0.000000e+00	-4.83828e-02	4.768401e-02	
1	1.000000e-06	-7.47153e-17	-4.83828e-02	4.768401e-02	
2	2.000000e-06	-8.90039e-17	-4.83828e-02	4.768401e-02	
3	4.000000e-06	-7.91452e-17	-4.83828e-02	4.768401e-02	
4	8.000000e-06	-5.05220e-17	-4.83828e-02	4.768401e-02	
5	1.600000e-05	-5.12553e-17	-4.83828e-02	4.768401e-02	
6	3.200000e-05	-6.67485e-17	-4.83828e-02	4.768401e-02	
7	6.400000e-05	-6.74041e-17	-4.83828e-02	4.768401e-02	
8	1.000000e-04	-3.34733e-17	-4.83828e-02	4.768401e-02	
9	1.064000e-04	-1.17422e-11	-4.63922e-02	4.568066e-02	
10	1.192000e-04	-1.13038e-10	-4.24187e-02	4.168399e-02	
11	1.448000e-04	-2.36324e-10	-3.44989e-02	3.372105e-02	
12	1.960000e-04	-1.32214e-10	-1.88703e-02	1.801650e-02	
13	2.000000e-04	-1.77541e-10	-1.76707e-02	1.681140e-02	
14	2.035404e-04	-6.89027e-11	-1.76707e-02	1.681140e-02	
15	2.106211e-04	-2.19026e-11	-1.76707e-02	1.681140e-02	
16	2.247825e-04	-9.76845e-12	-1.76707e-02	1.681140e-02	
17	2.531053e-04	-3.90739e-12	-1.76707e-02	1.681140e-02	
18	3.097509e-04	-2.23699e-12	-1.76707e-02	1.681140e-02	
19	4.230422e-04	-1.31046e-12	-1.76707e-02	1.681140e-02	
20	6.496248e-04	-5.73466e-13	-1.76707e-02	1.681140e-02	
21	1.102790e-03	-3.57511e-13	-1.76707e-02	1.681140e-02	
22	2.009120e-03	-1.32688e-13	-1.76707e-02	1.681140e-02	
23	3.821781e-03	-1.26708e-13	-1.76707e-02	1.681140e-02	
24	7.447102e-03	3.839104e-15	-1.76707e-02	1.681140e-02	
25	1.469774e-02	-4.81777e-14	-1.76707e-02	1.681140e-02	
26	2.919903e-02	4.019342e-14	-1.76707e-02	1.681140e-02	
27	5.820160e-02	-4.07236e-14	-1.76707e-02	1.681140e-02	
28	1.002000e-01	4.024720e-14	-1.76707e-02	1.681140e-02	
29	1.002100e-01	1.464967e-10	-1.76707e-02	1.681140e-02	
30	1.002300e-01	1.683829e-10	-1.76707e-02	1.681140e-02	
31	1.002700e-01	1.758745e-10	-1.76707e-02	1.681140e-02	
32	1.003000e-01	1.859047e-10	-1.76707e-02	1.681140e-02	
33	1.003066e-01	1.603208e-12	-1.76707e-02	1.681140e-02	
34	1.003199e-01	1.935747e-12	-1.76707e-02	1.681140e-02	
35	1.003464e-01	1.929556e-12	-1.76707e-02	1.681140e-02	
36	1.003993e-01	1.917286e-12	-1.76707e-02	1.681140e-02	
37	1.005053e-01	1.892981e-12	-1.76707e-02	1.681140e-02	
38	1.007173e-01	1.845358e-12	-1.76707e-02	1.681140e-02	
39	1.011411e-01	1.754093e-12	-1.76707e-02	1.681140e-02	
40	1.019889e-01	1.585929e-12	-1.76707e-02	1.681140e-02	
41	1.036844e-01	1.298523e-12	-1.76707e-02	1.681140e-02	
42	1.070754e-01	8.717905e-13	-1.76707e-02	1.681140e-02	
43	1.138574e-01	3.834107e-13	-1.76707e-02	1.681140e-02	
44	1.274214e-01	5.104568e-14	-1.76707e-02	1.681140e-02	
45	1.545494e-01	-1.62735e-14	-1.76707e-02	1.681140e-02	
46	2.088054e-01	9.718790e-15	-1.76707e-02	1.681140e-02	
47	3.088054e-01	-7.30840e-15	-1.76707e-02	1.681140e-02	
48	4.088054e-01	5.867724e-15	-1.76707e-02	1.681140e-02	
49	5.088054e-01	-4.67630e-15	-1.76707e-02	1.681140e-02	
50	6.088054e-01	3.518002e-15	-1.76707e-02	1.681140e-02	
51	7.088054e-01	-2.67712e-15	-1.76707e-02	1.681140e-02	
52	8.088054e-01	1.965290e-15	-1.76707e-02	1.681140e-02	
53	9.088054e-01	-1.45795e-15	-1.76707e-02	1.681140e-02	
54	1.000200e+00	1.005664e-15	-1.76707e-02	1.681140e-02	

Index   time            v1#branch       v2#branch       v3#branch       
--------------------------------------------------------------------------------
55	1.000210e+00	-1.71084e-10	-2.06779e-02	1.983242e-02	
56	1.000230e+00	-1.66298e-10	-2.67581e-02	2.594142e-02	
57	1.000270e+00	-1.55374e-10	-3.90723e-02	3.831877e-02	
58	1.000300e+00	-1.28606e-10	-4.83828e-02	4.768401e-02	
59	1.000305e+00	3.859061e-14	-4.83828e-02	4.768401e-02	
60	1.000314e+00	3.855455e-14	-4.83828e-02	4.768401e-02	
61	1.000333e+00	3.845279e-14	-4.83828e-02	4.768401e-02	
62	1.000370e+00	3.826018e-14	-4.83828e-02	4.768401e-02	
63	1.000445e+00	3.794676e-14	-4.83828e-02	4.768401e-02	
64	1.000595e+00	3.727013e-14	-4.83828e-02	4.768401e-02	
65	1.000894e+00	3.582822e-14	-4.83828e-02	4.768401e-02	
66	1.001492e+00	3.319713e-14	-4.83828e-02	4.768401e-02	
67	1.002689e+00	2.852672e-14	-4.83828e-02	4.768401e-02	
68	1.005083e+00	2.088063e-14	-4.83828e-02	4.768401e-02	
69	1.009871e+00	1.066996e-14	-4.83828e-02	4.768401e-02	
70	1.019447e+00	2.333293e-15	-4.83828e-02	4.768401e-02	
71	1.038600e+00	-2.53561e-16	-4.83828e-02	4.768401e-02	
72	1.076904e+00	-5.61707e-17	-4.83828e-02	4.768401e-02	
73	1.153512e+00	2.706147e-17	-4.83828e-02	4.768401e-02	
74	1.253512e+00	-3.63412e-17	-4.83828e-02	4.768401e-02	
75	1.353512e+00	3.923445e-17	-4.83828e-02	4.768401e-02	
76	1.453512e+00	-2.93358e-17	-4.83828e-02	4.768401e-02	
77	1.553512e+00	9.597786e-18	-4.83828e-02	4.768401e-02	
78	1.653512e+00	-9.39192e-18	-4.83828e-02	4.768401e-02	
79	1.753512e+00	2.234350e-17	-4.83828e-02	4.768401e-02	
80	1.853512e+00	-1.58109e-17	-4.83828e-02	4.768401e-02	
81	1.953512e+00	-1.50852e-18	-4.83828e-02	4.768401e-02	
82	2.000100e+00	1.232645e-17	-4.83828e-02	4.768401e-02	
83	2.000110e+00	-1.55113e-11	-4.52744e-02	4.455642e-02	
84	2.000130e+00	-2.31971e-10	-3.90723e-02	3.831877e-02	
85	2.000170e+00	-1.40234e-10	-2.67581e-02	2.594142e-02	
86	2.000200e+00	-2.10869e-10	-1.76707e-02	1.681137e-02	
87	2.000205e+00	-6.23531e-11	-1.76707e-02	1.681140e-02	
88	2.000216e+00	-1.45908e-11	-1.76707e-02	1.681140e-02	
89	2.000237e+00	-6.47644e-12	-1.76707e-02	1.681140e-02	
90	2.000280e+00	-2.67343e-12	-1.76707e-02	1.681140e-02	
91	2.000364e+00	-1.49074e-12	-1.76707e-02	1.681140e-02	
92	2.000534e+00	-9.11402e-13	-1.76707e-02	1.681140e-02	
93	2.000874e+00	-3.69274e-13	-1.76707e-02	1.681140e-02	
94	2.001553e+00	-2.70927e-13	-1.76707e-02	1.681140e-02	
95	2.002911e+00	-6.50410e-14	-1.76707e-02	1.681140e-02	
96	2.005627e+00	-1.05757e-13	-1.76707e-02	1.681140e-02	
97	2.011060e+00	3.429881e-14	-1.76707e-02	1.681140e-02	
98	2.021925e+00	-5.30403e-14	-1.76707e-02	1.681140e-02	
99	2.043656e+00	5.141951e-14	-1.76707e-02	1.681140e-02	
100	2.087116e+00	-5.18736e-14	-1.76707e-02	1.681140e-02	
101	2.100200e+00	5.164281e-14	-1.76707e-02	1.681140e-02	
102	2.100210e+00	1.464971e-10	-1.76707e-02	1.681140e-02	
103	2.100230e+00	1.683828e-10	-1.76707e-02	1.681140e-02	
104	2.100270e+00	1.758745e-10	-1.76707e-02	1.681140e-02	
105	2.100300e+00	1.859046e-10	-1.76707e-02	1.681140e-02	
106	2.100307e+00	1.603011e-12	-1.76707e-02	1.681140e-02	
107	2.100320e+00	1.935542e-12	-1.76707e-02	1.681140e-02	
108	2.100346e+00	1.929398e-12	-1.76707e-02	1.681140e-02	
109	2.100399e+00	1.917104e-12	-1.76707e-02	1.681140e-02	
110	2.100505e+00	1.892818e-12	-1.76707e-02	1.681140e-02	
111	2.100717e+00	1.845203e-12	-1.76707e-02	1.681140e-02	
112	2.101141e+00	1.753944e-12	-1.76707e-02	1.681140e-02	

Index   time            v1#branch       v2#branch       v3#branch       
--------------------------------------------------------------------------------
113	2.101989e+00	1.585785e-12	-1.76707e-02	1.681140e-02	
114	2.103684e+00	1.298444e-12	-1.76707e-02	1.681140e-02	
115	2.107075e+00	8.716893e-13	-1.76707e-02	1.681140e-02	
116	2.113857e+00	3.833829e-13	-1.76707e-02	1.681140e-02	
117	2.127421e+00	5.102199e-14	-1.76707e-02	1.681140e-02	
118	2.154549e+00	-1.62592e-14	-1.76707e-02	1.681140e-02	
119	2.208805e+00	9.707036e-15	-1.76707e-02	1.681140e-02	
120	2.308805e+00	-7.30153e-15	-1.76707e-02	1.681140e-02	
121	2.408805e+00	5.868779e-15	-1.76707e-02	1.681140e-02	
122	2.508805e+00	-4.67856e-15	-1.76707e-02	1.681140e-02	
123	2.608805e+00	3.515618e-15	-1.76707e-02	1.681140e-02	
124	2.708805e+00	-2.66469e-15	-1.76707e-02	1.681140e-02	
125	2.808805e+00	1.953385e-15	-1.76707e-02	1.681140e-02	
126	2.908805e+00	-1.44855e-15	-1.76707e-02	1.681140e-02	
127	3.000200e+00	9.959335e-16	-1.76707e-02	1.681140e-02	
128	3.000210e+00	-1.71084e-10	-2.06779e-02	1.983242e-02	
129	3.000230e+00	-1.66298e-10	-2.67581e-02	2.594142e-02	
130	3.000270e+00	-1.55374e-10	-3.90723e-02	3.831877e-02	
131	3.000300e+00	-1.28606e-10	-4.83828e-02	4.768401e-02	
132	3.000305e+00	3.850624e-14	-4.83828e-02	4.768401e-02	
133	3.000314e+00	3.847394e-14	-4.83828e-02	4.768401e-02	
134	3.000333e+00	3.839342e-14	-4.83828e-02	4.768401e-02	
135	3.000370e+00	3.825529e-14	-4.83828e-02	4.768401e-02	
136	3.000445e+00	3.795319e-14	-4.83828e-02	4.768401e-02	
137	3.000595e+00	3.722718e-14	-4.83828e-02	4.768401e-02	
138	3.000894e+00	3.578635e-14	-4.83828e-02	4.768401e-02	
139	3.001492e+00	3.319744e-14	-4.83828e-02	4.768401e-02	
140	3.002689e+00	2.851253e-14	-4.83828e-02	4.768401e-02	
141	3.005083e+00	2.086286e-14	-4.83828e-02	4.768401e-02	
142	3.009871e+00	1.065376e-14	-4.83828e-02	4.768401e-02	
143	3.019447e+00	2.340516e-15	-4.83828e-02	4.768401e-02	
144	3.038600e+00	-2.63547e-16	-4.83828e-02	4.768401e-02	
145	3.076904e+00	-4.50463e-17	-4.83828e-02	4.768401e-02	
146	3.153512e+00	1.936329e-17	-4.83828e-02	4.768401e-02	
147	3.253512e+00	-3.26566e-17	-4.83828e-02	4.768401e-02	
148	3.353512e+00	2.282314e-17	-4.83828e-02	4.768401e-02	
149	3.453512e+00	-8.84909e-19	-4.83828e-02	4.768401e-02	
150	3.553512e+00	-1.00143e-17	-4.83828e-02	4.768401e-02	
151	3.653512e+00	3.283823e-18	-4.83828e-02	4.768401e-02	
152	3.753512e+00	1.184528e-17	-4.83828e-02	4.768401e-02	
153	3.853512e+00	-1.84966e-17	-4.83828e-02	4.768401e-02	
154	3.953512e+00	1.103824e-17	-4.83828e-02	4.768401e-02	
155	4.000100e+00	-8.60779e-20	-4.83828e-02	4.768401e-02	
156	4.000110e+00	-1.55101e-11	-4.52744e-02	4.455642e-02	
157	4.000130e+00	-2.31964e-10	-3.90723e-02	3.831877e-02	
158	4.000170e+00	-1.40238e-10	-2.67581e-02	2.594142e-02	
159	4.000200e+00	-2.10868e-10	-1.76707e-02	1.681137e-02	
160	4.000205e+00	-6.23505e-11	-1.76707e-02	1.681140e-02	
161	4.000216e+00	-1.45905e-11	-1.76707e-02	1.681140e-02	
162	4.000237e+00	-6.47627e-12	-1.76707e-02	1.681140e-02	
163	4.000280e+00	-2.67334e-12	-1.76707e-02	1.681140e-02	
164	4.000364e+00	-1.49070e-12	-1.76707e-02	1.681140e-02	
165	4.000534e+00	-9.11410e-13	-1.76707e-02	1.681140e-02	
166	4.000874e+00	-3.69244e-13	-1.76707e-02	1.681140e-02	
167	4.001553e+00	-2.70973e-13	-1.76707e-02	1.681140e-02	
168	4.002911e+00	-6.50450e-14	-1.76707e-02	1.681140e-02	
169	4.005627e+00	-1.05722e-13	-1.76707e-02	1.681140e-02	
170	4.011060e+00	3.426171e-14	-1.76707e-02	1.681140e-02	

Index   time            v1#branch       v2#branch       v3#branch       
--------------------------------------------------------------------------------
171	4.021926e+00	-5.30307e-14	-1.76707e-02	1.681140e-02	
172	4.043657e+00	5.145146e-14	-1.76707e-02	1.681140e-02	
173	4.087119e+00	-5.19096e-14	-1.76707e-02	1.681140e-02	
174	4.100200e+00	5.169460e-14	-1.76707e-02	1.681140e-02	
175	4.100210e+00	1.464970e-10	-1.76707e-02	1.681140e-02	
176	4.100230e+00	1.683830e-10	-1.76707e-02	1.681140e-02	
177	4.100270e+00	1.758744e-10	-1.76707e-02	1.681140e-02	
178	4.100300e+00	1.859046e-10	-1.76707e-02	1.681140e-02	
179	4.100307e+00	1.602999e-12	-1.76707e-02	1.681140e-02	
180	4.100320e+00	1.935507e-12	-1.76707e-02	1.681140e-02	
181	4.100346e+00	1.929339e-12	-1.76707e-02	1.681140e-02	
182	4.100399e+00	1.917076e-12	-1.76707e-02	1.681140e-02	
183	4.100505e+00	1.892759e-12	-1.76707e-02	1.681140e-02	
184	4.100717e+00	1.845154e-12	-1.76707e-02	1.681140e-02	
185	4.101141e+00	1.753907e-12	-1.76707e-02	1.681140e-02	
186	4.101989e+00	1.585768e-12	-1.76707e-02	1.681140e-02	
187	4.103684e+00	1.298389e-12	-1.76707e-02	1.681140e-02	
188	4.107075e+00	8.716844e-13	-1.76707e-02	1.681140e-02	
189	4.113857e+00	3.833796e-13	-1.76707e-02	1.681140e-02	
190	4.127421e+00	5.099751e-14	-1.76707e-02	1.681140e-02	
191	4.154549e+00	-1.62303e-14	-1.76707e-02	1.681140e-02	
192	4.208805e+00	9.687983e-15	-1.76707e-02	1.681140e-02	
193	4.308805e+00	-7.28629e-15	-1.76707e-02	1.681140e-02	
194	4.408805e+00	5.855181e-15	-1.76707e-02	1.681140e-02	
195	4.508805e+00	-4.66756e-15	-1.76707e-02	1.681140e-02	
196	4.608805e+00	3.506401e-15	-1.76707e-02	1.681140e-02	
197	4.708805e+00	-2.65634e-15	-1.76707e-02	1.681140e-02	
198	4.808805e+00	1.943548e-15	-1.76707e-02	1.681140e-02	
199	4.908805e+00	-1.43811e-15	-1.76707e-02	1.681140e-02	
200	5.000200e+00	9.838826e-16	-1.76707e-02	1.681140e-02	
201	5.000210e+00	-1.71084e-10	-2.06779e-02	1.983242e-02	
202	5.000230e+00	-1.66298e-10	-2.67581e-02	2.594142e-02	
203	5.000270e+00	-1.55374e-10	-3.90723e-02	3.831877e-02	
204	5.000300e+00	-1.28606e-10	-4.83828e-02	4.768401e-02	
205	5.000305e+00	3.863686e-14	-4.83828e-02	4.768401e-02	
206	5.000314e+00	3.855577e-14	-4.83828e-02	4.768401e-02	
207	5.000333e+00	3.843886e-14	-4.83828e-02	4.768401e-02	
208	5.000370e+00	3.830037e-14	-4.83828e-02	4.768401e-02	
209	5.000445e+00	3.795623e-14	-4.83828e-02	4.768401e-02	
210	5.000595e+00	3.718920e-14	-4.83828e-02	4.768401e-02	
211	5.000894e+00	3.583013e-14	-4.83828e-02	4.768401e-02	
212	5.001492e+00	3.320206e-14	-4.83828e-02	4.768401e-02	
213	5.002689e+00	2.848623e-14	-4.83828e-02	4.768401e-02	
214	5.005083e+00	2.088909e-14	-4.83828e-02	4.768401e-02	
215	5.009871e+00	1.067106e-14	-4.83828e-02	4.768401e-02	
216	5.019447e+00	2.337453e-15	-4.83828e-02	4.768401e-02	
217	5.038600e+00	-2.67620e-16	-4.83828e-02	4.768401e-02	
218	5.076904e+00	-3.90297e-17	-4.83828e-02	4.768401e-02	
219	5.153512e+00	1.101149e-17	-4.83828e-02	4.768401e-02	
220	5.253512e+00	-2.37494e-17	-4.83828e-02	4.768401e-02	
221	5.353512e+00	3.172768e-17	-4.83828e-02	4.768401e-02	
222	5.453512e+00	-2.27178e-17	-4.83828e-02	4.768401e-02	
223	5.553512e+00	4.072759e-18	-4.83828e-02	4.768401e-02	
224	5.653512e+00	-5.81612e-18	-4.83828e-02	4.768401e-02	
225	5.753512e+00	1.633139e-17	-4.83828e-02	4.768401e-02	
226	5.853512e+00	-2.09758e-17	-4.83828e-02	4.768401e-02	
227	5.953512e+00	2.453743e-17	-4.83828e-02	4.768401e-02	
228	6.000100e+00	-1.90795e-17	-4.83828e-02	4.768401e-02	

Index   time            v1#branch       v2#branch       v3#branch       
--------------------------------------------------------------------------------
229	6.000110e+00	-1.55012e-11	-4.52744e-02	4.455642e-02	
230	6.000130e+00	-2.32006e-10	-3.90723e-02	3.831877e-02	
231	6.000170e+00	-1.40209e-10	-2.67581e-02	2.594142e-02	
232	6.000200e+00	-2.10880e-10	-1.76707e-02	1.681137e-02	
233	6.000205e+00	-6.23659e-11	-1.76707e-02	1.681140e-02	
234	6.000216e+00	-1.45929e-11	-1.76707e-02	1.681140e-02	
235	6.000237e+00	-6.47736e-12	-1.76707e-02	1.681140e-02	
236	6.000280e+00	-2.67380e-12	-1.76707e-02	1.681140e-02	
237	6.000364e+00	-1.49099e-12	-1.76707e-02	1.681140e-02	
238	6.000534e+00	-9.11525e-13	-1.76707e-02	1.681140e-02	
239	6.000874e+00	-3.69290e-13	-1.76707e-02	1.681140e-02	
240	6.001553e+00	-2.71001e-13	-1.76707e-02	1.681140e-02	
241	6.002911e+00	-6.50268e-14	-1.76707e-02	1.681140e-02	
242	6.005626e+00	-1.05777e-13	-1.76707e-02	1.681140e-02	
243	6.011058e+00	3.427804e-14	-1.76707e-02	1.681140e-02	
244	6.021922e+00	-5.30475e-14	-1.76707e-02	1.681140e-02	
245	6.043649e+00	5.144173e-14	-1.76707e-02	1.681140e-02	
246	6.087103e+00	-5.19000e-14	-1.76707e-02	1.681140e-02	
247	6.100200e+00	5.172210e-14	-1.76707e-02	1.681140e-02	
248	6.100210e+00	1.464970e-10	-1.76707e-02	1.681140e-02	
249	6.100230e+00	1.683830e-10	-1.76707e-02	1.681140e-02	
250	6.100270e+00	1.758744e-10	-1.76707e-02	1.681140e-02	
251	6.100300e+00	1.859046e-10	-1.76707e-02	1.681140e-02	
252	6.100307e+00	1.602982e-12	-1.76707e-02	1.681140e-02	
253	6.100320e+00	1.935515e-12	-1.76707e-02	1.681140e-02	
254	6.100346e+00	1.929343e-12	-1.76707e-02	1.681140e-02	
255	6.100399e+00	1.917096e-12	-1.76707e-02	1.681140e-02	
256	6.100505e+00	1.892773e-12	-1.76707e-02	1.681140e-02	
257	6.100717e+00	1.845150e-12	-1.76707e-02	1.681140e-02	
258	6.101141e+00	1.753912e-12	-1.76707e-02	1.681140e-02	
259	6.101989e+00	1.585719e-12	-1.76707e-02	1.681140e-02	
260	6.103684e+00	1.298389e-12	-1.76707e-02	1.681140e-02	
261	6.107075e+00	8.716840e-13	-1.76707e-02	1.681140e-02	
262	6.113857e+00	3.833817e-13	-1.76707e-02	1.681140e-02	
263	6.127421e+00	5.101290e-14	-1.76707e-02	1.681140e-02	
264	6.154549e+00	-1.62410e-14	-1.76707e-02	1.681140e-02	
265	6.208805e+00	9.692978e-15	-1.76707e-02	1.681140e-02	
266	6.308805e+00	-7.29068e-15	-1.76707e-02	1.681140e-02	
267	6.408805e+00	5.856568e-15	-1.76707e-02	1.681140e-02	
268	6.508805e+00	-4.66705e-15	-1.76707e-02	1.681140e-02	
269	6.608805e+00	3.508090e-15	-1.76707e-02	1.681140e-02	
270	6.708805e+00	-2.66633e-15	-1.76707e-02	1.681140e-02	
271	6.808805e+00	1.962383e-15	-1.76707e-02	1.681140e-02	
272	6.908805e+00	-1.45774e-15	-1.76707e-02	1.681140e-02	
273	7.000200e+00	1.003484e-15	-1.76707e-02	1.681140e-02	
274	7.000210e+00	-1.71084e-10	-2.06779e-02	1.983242e-02	
275	7.000230e+00	-1.66298e-10	-2.67581e-02	2.594142e-02	
276	7.000270e+00	-1.55374e-10	-3.90723e-02	3.831877e-02	
277	7.000300e+00	-1.28606e-10	-4.83828e-02	4.768401e-02	
278	7.000305e+00	3.858625e-14	-4.83828e-02	4.768401e-02	
279	7.000314e+00	3.855562e-14	-4.83828e-02	4.768401e-02	
280	7.000333e+00	3.843154e-14	-4.83828e-02	4.768401e-02	
281	7.000370e+00	3.829434e-14	-4.83828e-02	4.768401e-02	
282	7.000445e+00	3.794731e-14	-4.83828e-02	4.768401e-02	
283	7.000595e+00	3.722034e-14	-4.83828e-02	4.768401e-02	
284	7.000894e+00	3.584377e-14	-4.83828e-02	4.768401e-02	
285	7.001492e+00	3.321065e-14	-4.83828e-02	4.768401e-02	
286	7.002689e+00	2.848778e-14	-4.83828e-02	4.768401e-02	

Index   time            v1#branch       v2#branch       v3#branch       
--------------------------------------------------------------------------------
287	7.005083e+00	2.088591e-14	-4.83828e-02	4.768401e-02	
288	7.009871e+00	1.064542e-14	-4.83828e-02	4.768401e-02	
289	7.019447e+00	2.341944e-15	-4.83828e-02	4.768401e-02	
290	7.038600e+00	-2.67391e-16	-4.83828e-02	4.768401e-02	
291	7.076904e+00	-3.53661e-17	-4.83828e-02	4.768401e-02	
292	7.153512e+00	-3.83621e-18	-4.83828e-02	4.768401e-02	
293	7.253512e+00	9.775488e-18	-4.83828e-02	4.768401e-02	
294	7.353512e+00	-1.58172e-17	-4.83828e-02	4.768401e-02	
295	7.453512e+00	2.043382e-17	-4.83828e-02	4.768401e-02	
296	7.553512e+00	-1.57883e-17	-4.83828e-02	4.768401e-02	
297	7.653512e+00	1.453900e-17	-4.83828e-02	4.768401e-02	
298	7.753512e+00	-2.50633e-17	-4.83828e-02	4.768401e-02	
299	7.853512e+00	1.713161e-17	-4.83828e-02	4.768401e-02	
300	7.953512e+00	2.422357e-18	-4.83828e-02	4.768401e-02	
301	8.000100e+00	-8.05928e-18	-4.83828e-02	4.768401e-02	
302	8.000110e+00	-1.55025e-11	-4.52744e-02	4.455642e-02	
303	8.000130e+00	-2.32014e-10	-3.90723e-02	3.831877e-02	
304	8.000170e+00	-1.40205e-10	-2.67581e-02	2.594142e-02	
305	8.000200e+00	-2.10881e-10	-1.76707e-02	1.681137e-02	
306	8.000205e+00	-6.23687e-11	-1.76707e-02	1.681140e-02	
307	8.000216e+00	-1.45933e-11	-1.76707e-02	1.681140e-02	
308	8.000237e+00	-6.47756e-12	-1.76707e-02	1.681140e-02	
309	8.000280e+00	-2.67382e-12	-1.76707e-02	1.681140e-02	
310	8.000364e+00	-1.49102e-12	-1.76707e-02	1.681140e-02	
311	8.000534e+00	-9.11550e-13	-1.76707e-02	1.681140e-02	
312	8.000874e+00	-3.69348e-13	-1.76707e-02	1.681140e-02	
313	8.001553e+00	-2.71053e-13	-1.76707e-02	1.681140e-02	
314	8.002911e+00	-6.50452e-14	-1.76707e-02	1.681140e-02	
315	8.005626e+00	-1.05800e-13	-1.76707e-02	1.681140e-02	
316	8.011058e+00	3.431821e-14	-1.76707e-02	1.681140e-02	
317	8.021921e+00	-5.30331e-14	-1.76707e-02	1.681140e-02	
318	8.043648e+00	5.141349e-14	-1.76707e-02	1.681140e-02	
319	8.087101e+00	-5.18770e-14	-1.76707e-02	1.681140e-02	
320	8.100200e+00	5.167757e-14	-1.76707e-02	1.681140e-02	
321	8.100210e+00	1.464971e-10	-1.76707e-02	1.681140e-02	
322	8.100230e+00	1.683829e-10	-1.76707e-02	1.681140e-02	
323	8.100270e+00	1.758745e-10	-1.76707e-02	1.681140e-02	
324	8.100300e+00	1.859046e-10	-1.76707e-02	1.681140e-02	
325	8.100307e+00	1.603000e-12	-1.76707e-02	1.681140e-02	
